! S-parameter export from POSTFEKO
! Filename: Antena_Circular3.0[2]
! Creation date: 2025-11-23 20:23:50
! 
# Hz S DB R    5.0000000E+01 
  4.0000000E+09    -1.5365461E+01    -1.3641556E+02   
  4.0150000E+09    -1.5385195E+01    -1.3968914E+02   
  4.0300000E+09    -1.5343287E+01    -1.4261010E+02   
  4.0450000E+09    -1.5341655E+01    -1.4608382E+02   
  4.0600000E+09    -1.5328744E+01    -1.4949868E+02   
  4.0750000E+09    -1.5293992E+01    -1.5254636E+02   
  4.0900000E+09    -1.5203791E+01    -1.5592158E+02   
  4.1050000E+09    -1.5115407E+01    -1.5902262E+02   
  4.1200000E+09    -1.5031538E+01    -1.6212849E+02   
  4.1350000E+09    -1.4931745E+01    -1.6517154E+02   
  4.1500000E+09    -1.4843392E+01    -1.6827338E+02   
  4.1650000E+09    -1.4711525E+01    -1.7109300E+02   
  4.1800000E+09    -1.4570985E+01    -1.7404440E+02   
  4.1950000E+09    -1.4416352E+01    -1.7695474E+02   
  4.2100000E+09    -1.4251459E+01    -1.7990752E+02   
  4.2250000E+09    -1.4101961E+01     1.7768992E+02   
  4.2400000E+09    -1.3913870E+01     1.7492925E+02   
  4.2550000E+09    -1.3771020E+01     1.7244280E+02   
  4.2700000E+09    -1.3592386E+01     1.6979656E+02   
  4.2850000E+09    -1.3425987E+01     1.6738670E+02   
  4.3000000E+09    -1.3253547E+01     1.6500034E+02   
  4.3150000E+09    -1.3080308E+01     1.6267494E+02   
  4.3300000E+09    -1.2904521E+01     1.6035304E+02   
  4.3450000E+09    -1.2723533E+01     1.5806272E+02   
  4.3600000E+09    -1.2551871E+01     1.5591751E+02   
  4.3750000E+09    -1.2378170E+01     1.5378514E+02   
  4.3900000E+09    -1.2201502E+01     1.5168934E+02   
  4.4050000E+09    -1.2032068E+01     1.4964156E+02   
  4.4200000E+09    -1.1855398E+01     1.4776579E+02   
  4.4350000E+09    -1.1684030E+01     1.4579448E+02   
  4.4500000E+09    -1.1517323E+01     1.4388235E+02   
  4.4650000E+09    -1.1356204E+01     1.4203648E+02   
  4.4800000E+09    -1.1187105E+01     1.4003857E+02   
  4.4950000E+09    -1.1024554E+01     1.3822960E+02   
  4.5100000E+09    -1.0889111E+01     1.3663250E+02   
  4.5250000E+09    -1.0736211E+01     1.3489907E+02   
  4.5400000E+09    -1.0589472E+01     1.3319160E+02   
  4.5550000E+09    -1.0447695E+01     1.3153729E+02   
  4.5700000E+09    -1.0303171E+01     1.2986448E+02   
  4.5850000E+09    -1.0170807E+01     1.2820101E+02   
  4.6000000E+09    -1.0033709E+01     1.2660423E+02   
  4.6150000E+09    -9.9016714E+00     1.2502814E+02   
  4.6300000E+09    -9.7732219E+00     1.2353818E+02   
  4.6450000E+09    -9.6450862E+00     1.2197762E+02   
  4.6600000E+09    -9.5340522E+00     1.2049219E+02   
  4.6750000E+09    -9.4163047E+00     1.1896144E+02   
  4.6900000E+09    -9.3065902E+00     1.1746876E+02   
  4.7050000E+09    -9.1836508E+00     1.1600980E+02   
  4.7200000E+09    -9.0839386E+00     1.1437724E+02   
  4.7350000E+09    -8.9471283E+00     1.1326977E+02   
  4.7500000E+09    -8.8917074E+00     1.1162502E+02   
  4.7650000E+09    -8.7922223E+00     1.1022354E+02   
  4.7800000E+09    -8.6947545E+00     1.0882664E+02   
  4.7950000E+09    -8.6107414E+00     1.0747183E+02   
  4.8100000E+09    -8.5253772E+00     1.0611893E+02   
  4.8250000E+09    -8.4350486E+00     1.0474664E+02   
  4.8400000E+09    -8.3607089E+00     1.0342284E+02   
  4.8550000E+09    -8.2834264E+00     1.0207074E+02   
  4.8700000E+09    -8.1950760E+00     1.0065740E+02   
  4.8850000E+09    -8.1296196E+00     9.9330316E+01   
  4.9000000E+09    -8.0761386E+00     9.8051476E+01   
  4.9150000E+09    -8.0015304E+00     9.6658123E+01   
  4.9300000E+09    -7.9576688E+00     9.5400742E+01   
  4.9450000E+09    -7.9057263E+00     9.4087646E+01   
  4.9600000E+09    -7.8550166E+00     9.2762720E+01   
  4.9750000E+09    -7.8173895E+00     9.1487924E+01   
  4.9900000E+09    -7.7721754E+00     9.0161295E+01   
  5.0050000E+09    -7.7353584E+00     8.8845355E+01   
  5.0200000E+09    -7.7076273E+00     8.7566707E+01   
  5.0350000E+09    -7.6763629E+00     8.6264556E+01   
  5.0500000E+09    -7.6239432E+00     8.4973287E+01   
  5.0650000E+09    -7.6336786E+00     8.3588915E+01   
  5.0800000E+09    -7.6157941E+00     8.2219393E+01   
  5.0950000E+09    -7.6030001E+00     8.0912762E+01   
  5.1100000E+09    -7.6003057E+00     7.9604103E+01   
  5.1250000E+09    -7.6086874E+00     7.8332624E+01   
  5.1400000E+09    -7.6197165E+00     7.6951852E+01   
  5.1550000E+09    -7.6223552E+00     7.5628270E+01   
  5.1700000E+09    -7.6419290E+00     7.4270280E+01   
  5.1850000E+09    -7.6596189E+00     7.2858956E+01   
  5.2000000E+09    -7.6718048E+00     7.1532646E+01   
  5.2150000E+09    -7.7475060E+00     7.0109663E+01   
  5.2300000E+09    -7.7912416E+00     6.8716978E+01   
  5.2450000E+09    -7.8455051E+00     6.7303014E+01   
  5.2600000E+09    -7.9024208E+00     6.5849265E+01   
  5.2750000E+09    -7.9766623E+00     6.4408729E+01   
  5.2900000E+09    -8.0566832E+00     6.2934465E+01   
  5.3050000E+09    -8.1523051E+00     6.1472248E+01   
  5.3200000E+09    -8.2525240E+00     5.9932377E+01   
  5.3350000E+09    -8.3656260E+00     5.8403711E+01   
  5.3500000E+09    -8.4984913E+00     5.6871948E+01   
  5.3650000E+09    -8.6365782E+00     5.5282837E+01   
  5.3800000E+09    -8.7998536E+00     5.3684215E+01   
  5.3950000E+09    -8.9753508E+00     5.2065316E+01   
  5.4100000E+09    -9.1722215E+00     5.0411359E+01   
  5.4250000E+09    -9.3878102E+00     4.8732610E+01   
  5.4400000E+09    -9.6303711E+00     4.7032088E+01   
  5.4550000E+09    -9.8977429E+00     4.5285130E+01   
  5.4700000E+09    -1.0200427E+01     4.3507523E+01   
  5.4850000E+09    -1.0536206E+01     4.1716043E+01   
  5.5000000E+09    -1.0903853E+01     3.9926244E+01   
  5.5150000E+09    -1.1308015E+01     3.7995133E+01   
  5.5300000E+09    -1.1777971E+01     3.6116877E+01   
  5.5450000E+09    -1.2309465E+01     3.4224144E+01   
  5.5600000E+09    -1.2914595E+01     3.2284986E+01   
  5.5750000E+09    -1.3606236E+01     3.0345541E+01   
  5.5900000E+09    -1.4405531E+01     2.8408211E+01   
  5.6050000E+09    -1.5337199E+01     2.6521053E+01   
  5.6200000E+09    -1.6450261E+01     2.4602510E+01   
  5.6350000E+09    -1.7787319E+01     2.2973664E+01   
  5.6500000E+09    -1.9475964E+01     2.1742603E+01   
  5.6650000E+09    -2.1643872E+01     2.1156172E+01   
  5.6800000E+09    -2.4668329E+01     2.2663210E+01   
  5.6950000E+09    -2.9424507E+01     2.9249759E+01   
  5.7100000E+09    -3.7567255E+01     7.4427712E+01   
  5.7250000E+09    -3.1699614E+01     1.5347289E+02   
  5.7400000E+09    -2.5680785E+01     1.6422437E+02   
  5.7550000E+09    -2.1825015E+01     1.6727560E+02   
  5.7700000E+09    -1.9165739E+01     1.6704968E+02   
  5.7850000E+09    -1.7101293E+01     1.6554155E+02   
  5.8000000E+09    -1.5422405E+01     1.6351702E+02   
  5.8150000E+09    -1.4012155E+01     1.6129439E+02   
  5.8300000E+09    -1.2799576E+01     1.5888055E+02   
  5.8450000E+09    -1.1751958E+01     1.5628778E+02   
  5.8600000E+09    -1.0829924E+01     1.5368299E+02   
  5.8750000E+09    -1.0001481E+01     1.5112373E+02   
  5.8900000E+09    -9.2751406E+00     1.4841913E+02   
  5.9050000E+09    -8.6179750E+00     1.4577376E+02   
  5.9200000E+09    -8.0320994E+00     1.4320364E+02   
  5.9350000E+09    -7.5081339E+00     1.4065690E+02   
  5.9500000E+09    -7.0043353E+00     1.3812429E+02   
  5.9650000E+09    -6.5577398E+00     1.3559814E+02   
  5.9800000E+09    -6.1583718E+00     1.3310724E+02   
  5.9950000E+09    -5.7962311E+00     1.3068590E+02   
  6.0100000E+09    -5.4911274E+00     1.2845937E+02   
  6.0250000E+09    -5.1668460E+00     1.2604817E+02   
  6.0400000E+09    -4.8828899E+00     1.2390455E+02   
  6.0550000E+09    -4.6179583E+00     1.2175161E+02   
  6.0700000E+09    -4.4142837E+00     1.1950950E+02   
  6.0850000E+09    -4.2098824E+00     1.1743531E+02   
  6.1000000E+09    -4.0230252E+00     1.1542386E+02   
  6.1150000E+09    -3.8529984E+00     1.1348251E+02   
  6.1300000E+09    -3.6963503E+00     1.1160501E+02   
  6.1450000E+09    -3.5518627E+00     1.0977910E+02   
  6.1600000E+09    -3.4194439E+00     1.0801592E+02   
  6.1750000E+09    -3.2918718E+00     1.0634059E+02   
  6.1900000E+09    -3.1835506E+00     1.0467782E+02   
  6.2050000E+09    -3.0776445E+00     1.0310345E+02   
  6.2200000E+09    -2.9850104E+00     1.0152686E+02   
  6.2350000E+09    -2.9233757E+00     9.9920903E+01   
  6.2500000E+09    -2.8594355E+00     9.8451814E+01   
  6.2650000E+09    -2.7745119E+00     9.7018801E+01   
  6.2800000E+09    -2.7100870E+00     9.5639709E+01   
  6.2950000E+09    -2.6563721E+00     9.4339174E+01   
  6.3100000E+09    -2.5995609E+00     9.3021321E+01   
  6.3250000E+09    -2.5421571E+00     9.1777419E+01   
  6.3400000E+09    -2.4798894E+00     9.0513498E+01   
  6.3550000E+09    -2.4340780E+00     8.9332071E+01   
  6.3700000E+09    -2.3940928E+00     8.8161086E+01   
  6.3850000E+09    -2.3543888E+00     8.7018363E+01   
  6.4000000E+09    -2.3146941E+00     8.5909771E+01   
  6.4150000E+09    -2.2808260E+00     8.4827793E+01   
  6.4300000E+09    -2.2516783E+00     8.3832489E+01   
  6.4450000E+09    -2.2122180E+00     8.2732518E+01   
  6.4600000E+09    -2.1878548E+00     8.1729132E+01   
  6.4750000E+09    -2.1627983E+00     8.0687155E+01   
  6.4900000E+09    -2.1406890E+00     7.9752386E+01   
  6.5050000E+09    -2.1124208E+00     7.8879732E+01   
  6.5200000E+09    -2.0767237E+00     7.7822283E+01   
  6.5350000E+09    -2.0577478E+00     7.6905484E+01   
  6.5500000E+09    -2.0486557E+00     7.6108538E+01   
  6.5650000E+09    -2.0277625E+00     7.5135705E+01   
  6.5800000E+09    -2.0158261E+00     7.4371595E+01   
  6.5950000E+09    -1.9989171E+00     7.3501905E+01   
  6.6100000E+09    -1.9796044E+00     7.2608668E+01   
  6.6250000E+09    -1.9822287E+00     7.1773937E+01   
  6.6400000E+09    -1.9652266E+00     7.0960439E+01   
  6.6550000E+09    -1.9520536E+00     7.0226071E+01   
  6.6700000E+09    -1.9422699E+00     6.9439773E+01   
  6.6850000E+09    -1.9325495E+00     6.8660210E+01   
  6.7000000E+09    -1.9178277E+00     6.7842226E+01   
  6.7150000E+09    -1.9241537E+00     6.7069856E+01   
  6.7300000E+09    -1.9096617E+00     6.6401908E+01   
  6.7450000E+09    -1.9092137E+00     6.5631003E+01   
  6.7600000E+09    -1.8978505E+00     6.4948470E+01   
  6.7750000E+09    -1.8836221E+00     6.4149891E+01   
  6.7900000E+09    -1.8822225E+00     6.3467582E+01   
  6.8050000E+09    -1.8809604E+00     6.2791457E+01   
  6.8200000E+09    -1.8792686E+00     6.2116991E+01   
  6.8350000E+09    -1.8830172E+00     6.1440423E+01   
  6.8500000E+09    -1.8776441E+00     6.0759715E+01   
  6.8650000E+09    -1.8715445E+00     6.0120443E+01   
  6.8800000E+09    -1.8676460E+00     5.9481984E+01   
  6.8950000E+09    -1.8711161E+00     5.8793325E+01   
  6.9100000E+09    -1.8702490E+00     5.8149720E+01   
  6.9250000E+09    -1.8686989E+00     5.7513270E+01   
  6.9400000E+09    -1.8686886E+00     5.6882819E+01   
  6.9550000E+09    -1.8673613E+00     5.6248802E+01   
  6.9700000E+09    -1.8700668E+00     5.5640724E+01   
  6.9850000E+09    -1.8763061E+00     5.5054753E+01   
  7.0000000E+09    -1.8785982E+00     5.4450616E+01   
